 ****** HSPICE -- D-2010.03-SP1 32-BIT (May 26 2010) winnt ******               
  Copyright (C) 2010 Synopsys, Inc. All Rights Reserved.                        
  Unpublished-rights reserved under US copyright laws.
  This program is protected by law and is subject to the 
  terms and conditions of the license agreement from Synopsys.
  Use of this program is your acceptance to be bound by the 
  license agreement. HSPICE is the trademark of Synopsys, Inc.
  Input File: d:\digital electronic\projects\ca_1\question_1_part_g_capacitance_
  lic:  
  lic: FLEXlm: v8.5b 
  lic: USER:   HP                   HOSTNAME: ProBook 
  lic: HOSTID: "00090faa0001 56db30007c95 16db30007c95 a4db30007c95 a45d36cb5ab9
  
  lic: Using FLEXlm license file: 
  lic: 27000@elena 
  lic: Checkout 1 hspice 
  lic: License/Maintenance for hspice will expire on 31-dec-2020/2007.9 
  lic: NODE LOCKED license on hostid "00090faa0001 56db30007c95 16db30007c95 a4d
 b
  lic:   
 Init: read install configuration file: C:\synopsys\Hspice_D-2010.03-SP1\meta.cfg
1****** HSPICE -- D-2010.03-SP1 32-BIT (May 26 2010) winnt ******               
 ******  
 first line of the netlist must be blank.

  ******  mos   model parameters tnom=  25.000 temp=  25.000 *****
 
Model Name: nmos  

 BSIM4 Model (Level 54)

    MOBMOD = 0
    BINUNIT = 1
    PARAMCHK = 1
    CAPMOD = 2
    DIOMOD = 1
    RDSMOD = 0
    TRNQSMOD = 0
    ACNQSMOD = 0
    RBODYMOD = 1
    RGATEMOD = 1
    PERMOD = 1
    GEOMOD = 1
    RGEOMOD = 0
    FNOIMOD = 1
    TNOIMOD = 0
    IGCMOD = 1
    IGBMOD = 1
    STIMOD = 0
    VERSION =      4 
    TOXREF = 1.75e-009 
    TOXE = 1.75e-009 
    TOXP = 1.1e-009 
    TOXM = 1.75e-009 
    DTOX = 6.5e-010 
    EPSROX =    3.9 
    CDSC =      0 
    CDSCB =      0 
    CDSCD =      0 
    CIT =      0 
    NFACTOR =    2.1 
    XJ = 1.4e-008 
    VSAT = 1.474e+005 
    A0 =      1 
    AGS = 1e-020 
    A1 =      0 
    A2 =      1 
    AT = 3.3e+004 
    KETA =   0.04 
    NSUB = 6e+016 
    NDEP = 3.28e+018 
    NSD = 2e+020 
    NGATE = 2e+020 
    GAMMA1 =      0 
    GAMMA2 =      0 
    VBX =      0 
    VBM =     -3 
    XT = 1.55e-007 
    K1 =  0.528 
    KT1 =  -0.11 
    KT1L =      0 
    KT2 =  0.022 
    K2 =   0.01 
    K3 =      0 
    K3B =      0 
    LPE0 =      0 
    LPEB =      0 
    DVTP0 = 1e-009 
    DVTP1 =    0.1 
    W0 = 2.5e-006 
    DVT0 =      1 
    DVT1 =      2 
    DVT2 = -0.032 
    DVT0W =      0 
    DVT1W =      0 
    DVT2W =      0 
    DROUT =    0.5 
    DSUB =    0.1 
    VTH0 =  0.469 
    EU =   1.67 
    UA = 6e-010 
    UA1 = 4.31e-009 
    UB = 1.2e-018 
    UB1 = 7.61e-018 
    UC =      0 
    UC1 = -5.6e-011 
    U0 = 0.04372 
    UTE =   -1.5 
    VOFF =  -0.13 
    VOFFL =      0 
    MINV =   0.05 
    FPROUT =    0.2 
    PDITS =   0.08 
    PDITSD =   0.23 
    PDITSL = 2.3e+006 
    DELTA =   0.01 
    RDSW =    155 
    RDSWMIN =      0 
    RDWMIN =      0 
    RSWMIN =      0 
    RDW =     85 
    RSW =     85 
    PRWG =      0 
    PRWB = 6.8e-011 
    PRT =      0 
    ETA0 = 0.0049 
    ETAB =      0 
    PCLM =   0.04 
    PDIBLC1 =  0.001 
    PDIBLC2 =  0.001 
    PDIBLCB = -0.005 
    PSCBE1 = 8.14e+008 
    PSCBE2 = 1e-007 
    PVAG = 1e-020 
    WR =      1 
    DWG =      0 
    DWB =      0 
    XW =      0 
    XWREF =      0 
    XL = -2e-008 
    XLREF = -2e-008 
    B0 =      0 
    B1 =      0 
    ALPHA0 =  0.074 
    ALPHA1 =  0.005 
    AGIDL = 0.0002 
    BGIDL = 2.1e+009 
    CGIDL = 0.0002 
    PHIN =      0 
    EGIDL =    0.8 
    AIGC =  0.012 
    BIGC = 0.0028 
    CIGC =  0.002 
    AIGSD =  0.012 
    BIGSD = 0.0028 
    CIGSD =  0.002 
    AIGBACC =  0.012 
    BIGBACC = 0.0028 
    CIGBACC =  0.002 
    AIGBINV =  0.014 
    BIGBINV =  0.004 
    CIGBINV =  0.004 
    NIGC =      1 
    NIGBINV =      3 
    NIGBACC =      1 
    NTOX =      1 
    EIGBINV =    1.1 
    PIGCD =      1 
    POXEDGE =      1 
    XRCRG1 =     12 
    TNOIA =    1.5 
    TNOIB =    3.5 
    NTNOI =      1 
    XRCRG2 =      5 
    BETA0 =     30 
    IJTHDFWD =   0.01 
    IJTHSFWD =   0.01 
    IJTHDREV =  0.001 
    IJTHSREV =  0.001 
    XJBVD =      1 
    XJBVS =      1 
    BVD =     10 
    BVS =     10 
    VFB =  -0.55 
    GBMIN = 1e-010 
    RBDB =     15 
    RBPB =      5 
    RBSB =     15 
    RBPS =     15 
    RBPD =     15 
    CGSL = 2.653e-010 
    CGDL = 2.653e-010 
    CKAPPAS =   0.03 
    CKAPPAD =   0.03 
    CF = 1.195e-010 
    CLC = 1e-007 
    CLE =    0.6 
    DWC = 5e-009 
    DLC = 3.75e-009 
    DLCIG = 3.75e-009 
    DWJ =      0 
    VFBCV =     -1 
    ACDE =      1 
    MOIN =     15 
    NOFF =    0.9 
    VOFFCV =   0.02 
    DMCG =      0 
    DMCI =      0 
    DMDG =      0 
    DMCGT =      0 
    XGW =      0 
    XGL =      0 
    RSHG =    0.4 
    NGCON =      1 
    TCJ =  0.001 
    TPB =  0.005 
    TCJSW =  0.001 
    TPBSW =  0.005 
    TCJSWG =  0.001 
    TPBSWG =  0.005 
    SK0 =      0 
    SK1 =      0 
    SK2 =      0 
    SL = 2e-006 
    SW = 2e-006 
    K =      0 
    TNOM =  300.1 
    CGSO = 1.1e-010 
    CGDO = 1.1e-010 
    CGBO = 2.56e-011 
    XPART =      0 
    RSH =      5 
    JSS = 0.0001 
    JSWS = 1e-011 
    JSWGS = 1e-010 
    PBS =      1 
    MJS =    0.5 
    PBSWS =      1 
    MJSWS =   0.33 
    CJS = 0.0005 
    CJSWS = 5e-010 
    NJS =      1 
    PBSWGS =      1 
    MJSWGS =   0.33 
    CJSWGS = 3e-010 
    XTIS =      3 
    JSD = 0.0001 
    JSWD = 1e-011 
    JSWGD = 1e-010 
    PBD =      1 
    MJD =    0.5 
    PBSWD =      1 
    MJSWD =   0.33 
    CJD = 0.0005 
    CJSWD = 5e-010 
    NJD =      1 
    PBSWGD =      1 
    MJSWGD =   0.33 
    CJSWGD = 5e-010 
    XTID =      3 
    LMLT =      1 
    WMLT =      1 
    LINT = 3.75e-009 
    LL =      0 
    LLC =      0 
    LLN =      1 
    LW =      0 
    LWC =      0 
    LWN =      1 
    LWL =      0 
    LWLC =      0 
    LMIN =      0 
    LMAX =      1 
    WINT = 5e-009 
    WL =      0 
    WLC =      0 
    WLN =      1 
    WW =      0 
    WWC =      0 
    WWN =      1 
    WWL =      0 
    WWLC =      0 
    WMIN =      0 
    WMAX =      1 
    NOIA = 6.25e+041 
    NOIB = 3.125e+026 
    NOIC = 8.75e+009 
    EM = 4.1e+007 
    EF =      1 
    AF =      1 
    KF =      0 
    TRS =      0 
    TRD =      0 
 

 
Model Name: pmos  

 BSIM4 Model (Level 54)

    MOBMOD = 0
    BINUNIT = 1
    PARAMCHK = 1
    CAPMOD = 2
    DIOMOD = 1
    RDSMOD = 0
    TRNQSMOD = 0
    ACNQSMOD = 0
    RBODYMOD = 1
    RGATEMOD = 1
    PERMOD = 1
    GEOMOD = 1
    RGEOMOD = 0
    FNOIMOD = 1
    TNOIMOD = 0
    IGCMOD = 1
    IGBMOD = 1
    STIMOD = 0
    VERSION =      4 
    TOXREF = 1.85e-009 
    TOXE = 1.85e-009 
    TOXP = 1.1e-009 
    TOXM = 1.85e-009 
    DTOX = 7.5e-010 
    EPSROX =    3.9 
    CDSC =      0 
    CDSCB =      0 
    CDSCD =      0 
    CIT =      0 
    NFACTOR =    2.1 
    XJ = 1.4e-008 
    VSAT = 7e+004 
    A0 =      1 
    AGS = 1e-020 
    A1 =      0 
    A2 =      1 
    AT = 3.3e+004 
    KETA = -0.047 
    NSUB = 6e+016 
    NDEP = 2.5e+018 
    NSD = 2e+020 
    NGATE = 2e+020 
    GAMMA1 =      0 
    GAMMA2 =      0 
    VBX =      0 
    VBM =     -3 
    XT = 1.55e-007 
    K1 =  0.488 
    KT1 =  -0.11 
    KT1L =      0 
    KT2 =  0.022 
    K2 =  -0.01 
    K3 =      0 
    K3B =      0 
    LPE0 =      0 
    LPEB =      0 
    DVTP0 = 1e-009 
    DVTP1 =   0.05 
    W0 = 2.5e-006 
    DVT0 =      1 
    DVT1 =      2 
    DVT2 = -0.032 
    DVT0W =      0 
    DVT1W =      0 
    DVT2W =      0 
    DROUT =   0.56 
    DSUB =    0.1 
    VTH0 = -0.418 
    EU =      1 
    UA = 2e-009 
    UA1 = 4.31e-009 
    UB = 5e-019 
    UB1 = 7.61e-018 
    UC =      0 
    UC1 = -5.6e-011 
    U0 = 0.00439 
    UTE =   -1.5 
    VOFF = -0.126 
    VOFFL =      0 
    MINV =   0.05 
    FPROUT =    0.2 
    PDITS =   0.08 
    PDITSD =   0.23 
    PDITSL = 2.3e+006 
    DELTA =   0.01 
    RDSW =    155 
    RDSWMIN =      0 
    RDWMIN =      0 
    RSWMIN =      0 
    RDW =     85 
    RSW =     85 
    PRWG = 3.22e-008 
    PRWB = 6.8e-011 
    PRT =      0 
    ETA0 = 0.0049 
    ETAB =      0 
    PCLM =   0.12 
    PDIBLC1 =  0.001 
    PDIBLC2 =  0.001 
    PDIBLCB = 3.4e-008 
    PSCBE1 = 8.14e+008 
    PSCBE2 = 9.58e-007 
    PVAG = 1e-020 
    WR =      1 
    DWG =      0 
    DWB =      0 
    XW =      0 
    XWREF =      0 
    XL = -2e-008 
    XLREF = -2e-008 
    B0 = -1e-020 
    B1 =      0 
    ALPHA0 =  0.074 
    ALPHA1 =  0.005 
    AGIDL = 0.0002 
    BGIDL = 2.1e+009 
    CGIDL = 0.0002 
    PHIN =      0 
    EGIDL =    0.8 
    AIGC =   0.69 
    BIGC = 0.0012 
    CIGC = 0.0008 
    AIGSD = 0.0087 
    BIGSD = 0.0012 
    CIGSD = 0.0008 
    AIGBACC =  0.012 
    BIGBACC = 0.0028 
    CIGBACC =  0.002 
    AIGBINV =  0.014 
    BIGBINV =  0.004 
    CIGBINV =  0.004 
    NIGC =      1 
    NIGBINV =      3 
    NIGBACC =      1 
    NTOX =      1 
    EIGBINV =    1.1 
    PIGCD =      1 
    POXEDGE =      1 
    XRCRG1 =     12 
    TNOIA =    1.5 
    TNOIB =    3.5 
    NTNOI =      1 
    XRCRG2 =      5 
    BETA0 =     30 
    IJTHDFWD =   0.01 
    IJTHSFWD =   0.01 
    IJTHDREV =  0.001 
    IJTHSREV =  0.001 
    XJBVD =      1 
    XJBVS =      1 
    BVD =     10 
    BVS =     10 
    VFB =   0.55 
    GBMIN = 1e-010 
    RBDB =     15 
    RBPB =      5 
    RBSB =     15 
    RBPS =     15 
    RBPD =     15 
    CGSL = 2.653e-010 
    CGDL = 2.653e-010 
    CKAPPAS =   0.03 
    CKAPPAD =   0.03 
    CF = 1.183e-010 
    CLC = 1e-007 
    CLE =    0.6 
    DWC = 5e-009 
    DLC = 3.75e-009 
    DLCIG = 3.75e-009 
    DWJ =      0 
    VFBCV =     -1 
    ACDE =      1 
    MOIN =     15 
    NOFF =    0.9 
    VOFFCV =   0.02 
    DMCG =      0 
    DMCI =      0 
    DMDG =      0 
    DMCGT =      0 
    XGW =      0 
    XGL =      0 
    RSHG =    0.4 
    NGCON =      1 
    TCJ =  0.001 
    TPB =  0.005 
    TCJSW =  0.001 
    TPBSW =  0.005 
    TCJSWG =  0.001 
    TPBSWG =  0.005 
    SK0 =      0 
    SK1 =      0 
    SK2 =      0 
    SL = 2e-006 
    SW = 2e-006 
    K =      0 
    TNOM =  300.1 
    CGSO = 1.1e-010 
    CGDO = 1.1e-010 
    CGBO = 2.56e-011 
    XPART =      0 
    RSH =      5 
    JSS = 0.0001 
    JSWS = 1e-011 
    JSWGS = 1e-010 
    PBS =      1 
    MJS =    0.5 
    PBSWS =      1 
    MJSWS =   0.33 
    CJS = 0.0005 
    CJSWS = 5e-010 
    NJS =      1 
    PBSWGS =      1 
    MJSWGS =   0.33 
    CJSWGS = 3e-010 
    XTIS =      3 
    JSD = 0.0001 
    JSWD = 1e-011 
    JSWGD = 1e-010 
    PBD =      1 
    MJD =    0.5 
    PBSWD =      1 
    MJSWD =   0.33 
    CJD = 0.0005 
    CJSWD = 5e-010 
    NJD =      1 
    PBSWGD =      1 
    MJSWGD =   0.33 
    CJSWGD = 5e-010 
    XTID =      3 
    LMLT =      1 
    WMLT =      1 
    LINT = 3.75e-009 
    LL =      0 
    LLC =      0 
    LLN =      1 
    LW =      0 
    LWC =      0 
    LWN =      1 
    LWL =      0 
    LWLC =      0 
    LMIN =      0 
    LMAX =      1 
    WINT = 5e-009 
    WL =      0 
    WLC =      0 
    WLN =      1 
    WW =      0 
    WWC =      0 
    WWN =      1 
    WWL =      0 
    WWLC =      0 
    WMIN =      0 
    WMAX =      1 
    NOIA = 6.188e+040 
    NOIB = 1.5e+025 
    NOIC = 8.75e+009 
    EM = 4.1e+007 
    EF =      1 
    AF =      1 
    KF =      0 
    TRS =      0 
    TRD =      0 
 

  **info** (d:\digital electronic\projects\ca_1\question_1_part_g_capacitance_50\q1_part_g_capacitance_50.sp:34) DC voltage reset to initial transient source value              in source        0:vin                 new dc=  0.0000D+00
 Warning:  Acde = 1 may be too small in BSIM4 model nmos with w=9e-008 l=4.5e-008.

 Warning: (B1 + Weff) may be too small in BSIM4 model nmos with w=9e-008 l=4.5e-008.

 Warning:  Acde = 1 may be too small in BSIM4 model pmos with w=1.8e-007 l=4.5e-008.

 
      
 **info** set option symb=1 internally to help for convergence.
 *****************************************************************
 ******  option summary
 ******
 runlvl  = 3         bypass  = 2         
 Warning:  Acde = 1 may be too small in BSIM4 model nmos with w=9e-008 l=4.5e-008.

 Warning: (B1 + Weff) may be too small in BSIM4 model nmos with w=9e-008 l=4.5e-008.

 Warning:  Acde = 1 may be too small in BSIM4 model pmos with w=1.8e-007 l=4.5e-008.

1****** HSPICE -- D-2010.03-SP1 32-BIT (May 26 2010) winnt ******               
 ******  
 first line of the netlist must be blank.

  ******  operating point information tnom=  25.000 temp=  27.000 *****
 ***** operating point status is all       simulation time is     0.     
    node    =voltage      node    =voltage      node    =voltage

 +0:in      =   0.      0:out     = 999.9601m 0:vdd     =   1.0000 


 ****  voltage sources

 subckt                        
 element  0:v1       0:vin     
  volts      1.0000     0.     
  current   -7.5777n  302.6121p
  power      7.5777n    0.     

     total voltage source power dissipation=    7.5777n       watts




 **** mosfets


 subckt                        
 element  0:m1       0:m2      
 model    0:pmos     0:nmos    
 region       Linear     Cutoff
  id        -7.5716n    7.2741n
  ibs     -3.429e-25  9.488e-25
  ibd       55.2575a   -1.0100p
  vgs       -1.0000     0.     
  vds      -39.8586u  999.9601m
  vbs        0.         0.     
  vth     -413.3471m  309.2431m
  vdsat   -439.2456m   37.5438m
  vod     -586.6529m -309.2431m
  beta     397.0420u    3.8069m
  gam eff  488.0000m  528.0000m
  gm         8.4558n  171.9736n
  gds      189.9553u   29.3232n
  gmb        3.5742n   56.5351n
  cdtot    259.1384a   56.3712a
  cgtot    246.7224a   62.8784a
  cstot    237.3373a  104.0121a
  cbtot    253.3401a  118.0935a
  cgs      141.2729a   32.0135a
  cgd      104.8915a   20.5717a



 ******  
 first line of the netlist must be blank.

  ******  transient analysis tnom=  25.000 temp=  27.000 *****
x

        time    voltage    
                    out    
    0.          999.9601m  
  100.00000p    824.0661m  
  200.00000p    642.9887m  
  300.00000p    516.7822m  
  400.00000p    400.3073m  
  500.00000p    283.8324m  
  600.00000p    167.3575m  
  700.00000p     74.7145m  
  800.00000p     27.3654m  
  900.00000p      7.4085m  
    1.00000n     -3.7974m  
    1.10000n    -14.1005m  
    1.20000n    -24.4036m  
    1.30000n    -34.7067m  
    1.40000n    -41.6341m  
    1.50000n    -30.5931m  
    1.60000n    -19.5521m  
    1.70000n     -8.5110m  
    1.80000n    970.7490u  
    1.90000n    629.9823u  
    2.00000n    289.2155u  
    2.10000n    -51.5512u  
    2.20000n    -38.8532u  
    2.30000n    -17.6424u  
    2.40000n      3.5685u  
    2.50000n     24.7794u  
    2.60000n     45.9902u  
    2.70000n     45.6106u  
    2.80000n     43.1307u  
    2.90000n     40.6507u  
    3.00000n     38.1708u  
    3.10000n     35.6909u  
    3.20000n     33.2109u  
    3.30000n     30.7310u  
    3.40000n     28.2510u  
    3.50000n     25.7711u  
    3.60000n     23.2911u  
    3.70000n     20.8112u  
    3.80000n     18.3312u  
    3.90000n     15.8513u  
    4.00000n     13.3714u  
    4.10000n     10.8914u  
    4.20000n     10.2389u  
    4.30000n     11.7677u  
    4.40000n     13.2966u  
    4.50000n     14.8254u  
    4.60000n     16.3543u  
    4.70000n     17.8832u  
    4.80000n     19.4120u  
    4.90000n     20.9409u  
    5.00000n     22.4697u  
    5.10000n     23.9986u  
    5.20000n     25.5274u  
    5.30000n     27.0563u  
    5.40000n     28.5851u  
    5.50000n     30.1140u  
    5.60000n     31.6429u  
    5.70000n     33.1717u  
    5.80000n     34.7006u  
    5.90000n     36.2294u  
    6.00000n     35.9771u  
    6.10000n     35.5911u  
    6.20000n     35.2052u  
    6.30000n     34.8192u  
    6.40000n     34.4333u  
    6.50000n     34.0473u  
    6.60000n     33.6614u  
    6.70000n     33.2755u  
    6.80000n     32.8895u  
    6.90000n     32.5036u  
    7.00000n     32.1176u  
    7.10000n     31.7317u  
    7.20000n     31.3457u  
    7.30000n     30.9598u  
    7.40000n     30.5739u  
    7.50000n     30.1879u  
    7.60000n     29.8020u  
    7.70000n     29.4160u  
    7.80000n     29.0301u  
    7.90000n     28.6441u  
    8.00000n     28.2582u  
    8.10000n     27.8723u  
    8.20000n     27.4863u  
    8.30000n     27.1004u  
    8.40000n     26.7144u  
    8.50000n     26.3285u  
    8.60000n     25.9425u  
    8.70000n     25.5566u  
    8.80000n     25.1707u  
    8.90000n     24.7847u  
    9.00000n     24.3988u  
    9.10000n     24.0128u  
    9.20000n     23.6269u  
    9.30000n     23.2409u  
    9.40000n     22.8550u  
    9.50000n     22.4690u  
    9.60000n     22.0831u  
    9.70000n     21.6972u  
    9.80000n     21.3112u  
    9.90000n     20.9253u  
   10.00000n     20.5393u  
   10.10000n     20.1534u  
   10.20000n     19.7674u  
   10.30000n     19.3815u  
   10.40000n     18.9956u  
   10.50000n     18.6096u  
   10.60000n     18.2237u  
   10.70000n     17.8377u  
   10.80000n     17.4518u  
   10.90000n     17.0658u  
   11.00000n     16.6799u  
   11.10000n     16.2940u  
   11.20000n     15.9080u  
   11.30000n     15.5221u  
   11.40000n     15.1361u  
   11.50000n     14.7502u  
   11.60000n     14.8894u  
   11.70000n     15.1225u  
   11.80000n     15.3557u  
   11.90000n     15.5888u  
   12.00000n     15.8220u  
   12.10000n     16.0551u  
   12.20000n     16.2883u  
   12.30000n     16.5214u  
   12.40000n     16.7546u  
   12.50000n     16.9877u  
   12.60000n     17.2209u  
   12.70000n     17.4540u  
   12.80000n     17.6872u  
   12.90000n     17.9203u  
   13.00000n     18.1535u  
   13.10000n     18.3866u  
   13.20000n     18.6198u  
   13.30000n     18.8529u  
   13.40000n     19.0861u  
   13.50000n     19.3192u  
   13.60000n     19.5524u  
   13.70000n     19.7855u  
   13.80000n     20.0187u  
   13.90000n     20.2518u  
   14.00000n     20.4850u  
   14.10000n     20.7181u  
   14.20000n     20.9513u  
   14.30000n     21.1844u  
   14.40000n     21.4176u  
   14.50000n     21.6507u  
   14.60000n     21.8839u  
   14.70000n     22.1170u  
   14.80000n     22.3502u  
   14.90000n     22.5833u  
   15.00000n     22.8164u  
   15.10000n     23.0496u  
   15.20000n     23.2827u  
   15.30000n     23.5159u  
   15.40000n     23.7490u  
   15.50000n     23.9822u  
   15.60000n     24.2153u  
   15.70000n     24.4485u  
   15.80000n     24.6816u  
   15.90000n     24.9148u  
   16.00000n     25.1479u  
   16.10000n     25.3811u  
   16.20000n     25.6142u  
   16.30000n     25.8474u  
   16.40000n     26.0805u  
   16.50000n     26.3137u  
   16.60000n     26.5468u  
   16.70000n     26.7800u  
   16.80000n     27.0131u  
   16.90000n     27.2463u  
   17.00000n     27.4794u  
   17.10000n     27.7126u  
   17.20000n     27.9457u  
   17.30000n     28.1789u  
   17.40000n     28.4120u  
   17.50000n     28.6452u  
   17.60000n     28.8783u  
   17.70000n     29.1115u  
   17.80000n     29.3446u  
   17.90000n     29.5778u  
   18.00000n     29.8109u  
   18.10000n     30.0441u  
   18.20000n     30.2772u  
   18.30000n     30.5104u  
   18.40000n     30.7435u  
   18.50000n     30.9766u  
   18.60000n     31.2098u  
   18.70000n     31.4429u  
   18.80000n     31.6761u  
   18.90000n     31.9092u  
   19.00000n     32.1424u  
   19.10000n     32.3755u  
   19.20000n     32.6087u  
   19.30000n     32.8418u  
   19.40000n     33.0750u  
   19.50000n     33.3081u  
   19.60000n     33.5413u  
   19.70000n     33.7744u  
   19.80000n     34.0076u  
   19.90000n     34.2407u  
   20.00000n     34.4739u  
   20.10000n    132.8690m  
   20.20000n    279.4787m  
   20.30000n    396.9111m  
   20.40000n    495.4404m  
   20.50000n    593.9697m  
   20.60000n    692.4989m  
   20.70000n    791.0282m  
   20.80000n    850.2198m  
   20.90000n    899.8778m  
   21.00000n    949.5358m  
   21.10000n    972.2100m  
