 ****** HSPICE -- D-2010.03-SP1 32-BIT (May 26 2010) winnt ******               
  Copyright (C) 2010 Synopsys, Inc. All Rights Reserved.                        
  Unpublished-rights reserved under US copyright laws.
  This program is protected by law and is subject to the 
  terms and conditions of the license agreement from Synopsys.
  Use of this program is your acceptance to be bound by the 
  license agreement. HSPICE is the trademark of Synopsys, Inc.
  Input File: d:\digital electronic\projects\ca_1\question_1_part_g_capacitance_
  lic:  
  lic: FLEXlm: v8.5b 
  lic: USER:   HP                   HOSTNAME: ProBook 
  lic: HOSTID: "00090faa0001 56db30007c95 16db30007c95 a4db30007c95 a45d36cb5ab9
  
  lic: Using FLEXlm license file: 
  lic: 27000@elena 
  lic: Checkout 1 hspice 
  lic: License/Maintenance for hspice will expire on 31-dec-2020/2007.9 
  lic: NODE LOCKED license on hostid "00090faa0001 56db30007c95 16db30007c95 a4d
 b
  lic:   
 Init: read install configuration file: C:\synopsys\Hspice_D-2010.03-SP1\meta.cfg
1****** HSPICE -- D-2010.03-SP1 32-BIT (May 26 2010) winnt ******               
 ******  
 first line of the netlist must be blank.

  ******  mos   model parameters tnom=  25.000 temp=  25.000 *****
 
Model Name: nmos  

 BSIM4 Model (Level 54)

    MOBMOD = 0
    BINUNIT = 1
    PARAMCHK = 1
    CAPMOD = 2
    DIOMOD = 1
    RDSMOD = 0
    TRNQSMOD = 0
    ACNQSMOD = 0
    RBODYMOD = 1
    RGATEMOD = 1
    PERMOD = 1
    GEOMOD = 1
    RGEOMOD = 0
    FNOIMOD = 1
    TNOIMOD = 0
    IGCMOD = 1
    IGBMOD = 1
    STIMOD = 0
    VERSION =      4 
    TOXREF = 1.75e-009 
    TOXE = 1.75e-009 
    TOXP = 1.1e-009 
    TOXM = 1.75e-009 
    DTOX = 6.5e-010 
    EPSROX =    3.9 
    CDSC =      0 
    CDSCB =      0 
    CDSCD =      0 
    CIT =      0 
    NFACTOR =    2.1 
    XJ = 1.4e-008 
    VSAT = 1.474e+005 
    A0 =      1 
    AGS = 1e-020 
    A1 =      0 
    A2 =      1 
    AT = 3.3e+004 
    KETA =   0.04 
    NSUB = 6e+016 
    NDEP = 3.28e+018 
    NSD = 2e+020 
    NGATE = 2e+020 
    GAMMA1 =      0 
    GAMMA2 =      0 
    VBX =      0 
    VBM =     -3 
    XT = 1.55e-007 
    K1 =  0.528 
    KT1 =  -0.11 
    KT1L =      0 
    KT2 =  0.022 
    K2 =   0.01 
    K3 =      0 
    K3B =      0 
    LPE0 =      0 
    LPEB =      0 
    DVTP0 = 1e-009 
    DVTP1 =    0.1 
    W0 = 2.5e-006 
    DVT0 =      1 
    DVT1 =      2 
    DVT2 = -0.032 
    DVT0W =      0 
    DVT1W =      0 
    DVT2W =      0 
    DROUT =    0.5 
    DSUB =    0.1 
    VTH0 =  0.469 
    EU =   1.67 
    UA = 6e-010 
    UA1 = 4.31e-009 
    UB = 1.2e-018 
    UB1 = 7.61e-018 
    UC =      0 
    UC1 = -5.6e-011 
    U0 = 0.04372 
    UTE =   -1.5 
    VOFF =  -0.13 
    VOFFL =      0 
    MINV =   0.05 
    FPROUT =    0.2 
    PDITS =   0.08 
    PDITSD =   0.23 
    PDITSL = 2.3e+006 
    DELTA =   0.01 
    RDSW =    155 
    RDSWMIN =      0 
    RDWMIN =      0 
    RSWMIN =      0 
    RDW =     85 
    RSW =     85 
    PRWG =      0 
    PRWB = 6.8e-011 
    PRT =      0 
    ETA0 = 0.0049 
    ETAB =      0 
    PCLM =   0.04 
    PDIBLC1 =  0.001 
    PDIBLC2 =  0.001 
    PDIBLCB = -0.005 
    PSCBE1 = 8.14e+008 
    PSCBE2 = 1e-007 
    PVAG = 1e-020 
    WR =      1 
    DWG =      0 
    DWB =      0 
    XW =      0 
    XWREF =      0 
    XL = -2e-008 
    XLREF = -2e-008 
    B0 =      0 
    B1 =      0 
    ALPHA0 =  0.074 
    ALPHA1 =  0.005 
    AGIDL = 0.0002 
    BGIDL = 2.1e+009 
    CGIDL = 0.0002 
    PHIN =      0 
    EGIDL =    0.8 
    AIGC =  0.012 
    BIGC = 0.0028 
    CIGC =  0.002 
    AIGSD =  0.012 
    BIGSD = 0.0028 
    CIGSD =  0.002 
    AIGBACC =  0.012 
    BIGBACC = 0.0028 
    CIGBACC =  0.002 
    AIGBINV =  0.014 
    BIGBINV =  0.004 
    CIGBINV =  0.004 
    NIGC =      1 
    NIGBINV =      3 
    NIGBACC =      1 
    NTOX =      1 
    EIGBINV =    1.1 
    PIGCD =      1 
    POXEDGE =      1 
    XRCRG1 =     12 
    TNOIA =    1.5 
    TNOIB =    3.5 
    NTNOI =      1 
    XRCRG2 =      5 
    BETA0 =     30 
    IJTHDFWD =   0.01 
    IJTHSFWD =   0.01 
    IJTHDREV =  0.001 
    IJTHSREV =  0.001 
    XJBVD =      1 
    XJBVS =      1 
    BVD =     10 
    BVS =     10 
    VFB =  -0.55 
    GBMIN = 1e-010 
    RBDB =     15 
    RBPB =      5 
    RBSB =     15 
    RBPS =     15 
    RBPD =     15 
    CGSL = 2.653e-010 
    CGDL = 2.653e-010 
    CKAPPAS =   0.03 
    CKAPPAD =   0.03 
    CF = 1.195e-010 
    CLC = 1e-007 
    CLE =    0.6 
    DWC = 5e-009 
    DLC = 3.75e-009 
    DLCIG = 3.75e-009 
    DWJ =      0 
    VFBCV =     -1 
    ACDE =      1 
    MOIN =     15 
    NOFF =    0.9 
    VOFFCV =   0.02 
    DMCG =      0 
    DMCI =      0 
    DMDG =      0 
    DMCGT =      0 
    XGW =      0 
    XGL =      0 
    RSHG =    0.4 
    NGCON =      1 
    TCJ =  0.001 
    TPB =  0.005 
    TCJSW =  0.001 
    TPBSW =  0.005 
    TCJSWG =  0.001 
    TPBSWG =  0.005 
    SK0 =      0 
    SK1 =      0 
    SK2 =      0 
    SL = 2e-006 
    SW = 2e-006 
    K =      0 
    TNOM =  300.1 
    CGSO = 1.1e-010 
    CGDO = 1.1e-010 
    CGBO = 2.56e-011 
    XPART =      0 
    RSH =      5 
    JSS = 0.0001 
    JSWS = 1e-011 
    JSWGS = 1e-010 
    PBS =      1 
    MJS =    0.5 
    PBSWS =      1 
    MJSWS =   0.33 
    CJS = 0.0005 
    CJSWS = 5e-010 
    NJS =      1 
    PBSWGS =      1 
    MJSWGS =   0.33 
    CJSWGS = 3e-010 
    XTIS =      3 
    JSD = 0.0001 
    JSWD = 1e-011 
    JSWGD = 1e-010 
    PBD =      1 
    MJD =    0.5 
    PBSWD =      1 
    MJSWD =   0.33 
    CJD = 0.0005 
    CJSWD = 5e-010 
    NJD =      1 
    PBSWGD =      1 
    MJSWGD =   0.33 
    CJSWGD = 5e-010 
    XTID =      3 
    LMLT =      1 
    WMLT =      1 
    LINT = 3.75e-009 
    LL =      0 
    LLC =      0 
    LLN =      1 
    LW =      0 
    LWC =      0 
    LWN =      1 
    LWL =      0 
    LWLC =      0 
    LMIN =      0 
    LMAX =      1 
    WINT = 5e-009 
    WL =      0 
    WLC =      0 
    WLN =      1 
    WW =      0 
    WWC =      0 
    WWN =      1 
    WWL =      0 
    WWLC =      0 
    WMIN =      0 
    WMAX =      1 
    NOIA = 6.25e+041 
    NOIB = 3.125e+026 
    NOIC = 8.75e+009 
    EM = 4.1e+007 
    EF =      1 
    AF =      1 
    KF =      0 
    TRS =      0 
    TRD =      0 
 

 
Model Name: pmos  

 BSIM4 Model (Level 54)

    MOBMOD = 0
    BINUNIT = 1
    PARAMCHK = 1
    CAPMOD = 2
    DIOMOD = 1
    RDSMOD = 0
    TRNQSMOD = 0
    ACNQSMOD = 0
    RBODYMOD = 1
    RGATEMOD = 1
    PERMOD = 1
    GEOMOD = 1
    RGEOMOD = 0
    FNOIMOD = 1
    TNOIMOD = 0
    IGCMOD = 1
    IGBMOD = 1
    STIMOD = 0
    VERSION =      4 
    TOXREF = 1.85e-009 
    TOXE = 1.85e-009 
    TOXP = 1.1e-009 
    TOXM = 1.85e-009 
    DTOX = 7.5e-010 
    EPSROX =    3.9 
    CDSC =      0 
    CDSCB =      0 
    CDSCD =      0 
    CIT =      0 
    NFACTOR =    2.1 
    XJ = 1.4e-008 
    VSAT = 7e+004 
    A0 =      1 
    AGS = 1e-020 
    A1 =      0 
    A2 =      1 
    AT = 3.3e+004 
    KETA = -0.047 
    NSUB = 6e+016 
    NDEP = 2.5e+018 
    NSD = 2e+020 
    NGATE = 2e+020 
    GAMMA1 =      0 
    GAMMA2 =      0 
    VBX =      0 
    VBM =     -3 
    XT = 1.55e-007 
    K1 =  0.488 
    KT1 =  -0.11 
    KT1L =      0 
    KT2 =  0.022 
    K2 =  -0.01 
    K3 =      0 
    K3B =      0 
    LPE0 =      0 
    LPEB =      0 
    DVTP0 = 1e-009 
    DVTP1 =   0.05 
    W0 = 2.5e-006 
    DVT0 =      1 
    DVT1 =      2 
    DVT2 = -0.032 
    DVT0W =      0 
    DVT1W =      0 
    DVT2W =      0 
    DROUT =   0.56 
    DSUB =    0.1 
    VTH0 = -0.418 
    EU =      1 
    UA = 2e-009 
    UA1 = 4.31e-009 
    UB = 5e-019 
    UB1 = 7.61e-018 
    UC =      0 
    UC1 = -5.6e-011 
    U0 = 0.00439 
    UTE =   -1.5 
    VOFF = -0.126 
    VOFFL =      0 
    MINV =   0.05 
    FPROUT =    0.2 
    PDITS =   0.08 
    PDITSD =   0.23 
    PDITSL = 2.3e+006 
    DELTA =   0.01 
    RDSW =    155 
    RDSWMIN =      0 
    RDWMIN =      0 
    RSWMIN =      0 
    RDW =     85 
    RSW =     85 
    PRWG = 3.22e-008 
    PRWB = 6.8e-011 
    PRT =      0 
    ETA0 = 0.0049 
    ETAB =      0 
    PCLM =   0.12 
    PDIBLC1 =  0.001 
    PDIBLC2 =  0.001 
    PDIBLCB = 3.4e-008 
    PSCBE1 = 8.14e+008 
    PSCBE2 = 9.58e-007 
    PVAG = 1e-020 
    WR =      1 
    DWG =      0 
    DWB =      0 
    XW =      0 
    XWREF =      0 
    XL = -2e-008 
    XLREF = -2e-008 
    B0 = -1e-020 
    B1 =      0 
    ALPHA0 =  0.074 
    ALPHA1 =  0.005 
    AGIDL = 0.0002 
    BGIDL = 2.1e+009 
    CGIDL = 0.0002 
    PHIN =      0 
    EGIDL =    0.8 
    AIGC =   0.69 
    BIGC = 0.0012 
    CIGC = 0.0008 
    AIGSD = 0.0087 
    BIGSD = 0.0012 
    CIGSD = 0.0008 
    AIGBACC =  0.012 
    BIGBACC = 0.0028 
    CIGBACC =  0.002 
    AIGBINV =  0.014 
    BIGBINV =  0.004 
    CIGBINV =  0.004 
    NIGC =      1 
    NIGBINV =      3 
    NIGBACC =      1 
    NTOX =      1 
    EIGBINV =    1.1 
    PIGCD =      1 
    POXEDGE =      1 
    XRCRG1 =     12 
    TNOIA =    1.5 
    TNOIB =    3.5 
    NTNOI =      1 
    XRCRG2 =      5 
    BETA0 =     30 
    IJTHDFWD =   0.01 
    IJTHSFWD =   0.01 
    IJTHDREV =  0.001 
    IJTHSREV =  0.001 
    XJBVD =      1 
    XJBVS =      1 
    BVD =     10 
    BVS =     10 
    VFB =   0.55 
    GBMIN = 1e-010 
    RBDB =     15 
    RBPB =      5 
    RBSB =     15 
    RBPS =     15 
    RBPD =     15 
    CGSL = 2.653e-010 
    CGDL = 2.653e-010 
    CKAPPAS =   0.03 
    CKAPPAD =   0.03 
    CF = 1.183e-010 
    CLC = 1e-007 
    CLE =    0.6 
    DWC = 5e-009 
    DLC = 3.75e-009 
    DLCIG = 3.75e-009 
    DWJ =      0 
    VFBCV =     -1 
    ACDE =      1 
    MOIN =     15 
    NOFF =    0.9 
    VOFFCV =   0.02 
    DMCG =      0 
    DMCI =      0 
    DMDG =      0 
    DMCGT =      0 
    XGW =      0 
    XGL =      0 
    RSHG =    0.4 
    NGCON =      1 
    TCJ =  0.001 
    TPB =  0.005 
    TCJSW =  0.001 
    TPBSW =  0.005 
    TCJSWG =  0.001 
    TPBSWG =  0.005 
    SK0 =      0 
    SK1 =      0 
    SK2 =      0 
    SL = 2e-006 
    SW = 2e-006 
    K =      0 
    TNOM =  300.1 
    CGSO = 1.1e-010 
    CGDO = 1.1e-010 
    CGBO = 2.56e-011 
    XPART =      0 
    RSH =      5 
    JSS = 0.0001 
    JSWS = 1e-011 
    JSWGS = 1e-010 
    PBS =      1 
    MJS =    0.5 
    PBSWS =      1 
    MJSWS =   0.33 
    CJS = 0.0005 
    CJSWS = 5e-010 
    NJS =      1 
    PBSWGS =      1 
    MJSWGS =   0.33 
    CJSWGS = 3e-010 
    XTIS =      3 
    JSD = 0.0001 
    JSWD = 1e-011 
    JSWGD = 1e-010 
    PBD =      1 
    MJD =    0.5 
    PBSWD =      1 
    MJSWD =   0.33 
    CJD = 0.0005 
    CJSWD = 5e-010 
    NJD =      1 
    PBSWGD =      1 
    MJSWGD =   0.33 
    CJSWGD = 5e-010 
    XTID =      3 
    LMLT =      1 
    WMLT =      1 
    LINT = 3.75e-009 
    LL =      0 
    LLC =      0 
    LLN =      1 
    LW =      0 
    LWC =      0 
    LWN =      1 
    LWL =      0 
    LWLC =      0 
    LMIN =      0 
    LMAX =      1 
    WINT = 5e-009 
    WL =      0 
    WLC =      0 
    WLN =      1 
    WW =      0 
    WWC =      0 
    WWN =      1 
    WWL =      0 
    WWLC =      0 
    WMIN =      0 
    WMAX =      1 
    NOIA = 6.188e+040 
    NOIB = 1.5e+025 
    NOIC = 8.75e+009 
    EM = 4.1e+007 
    EF =      1 
    AF =      1 
    KF =      0 
    TRS =      0 
    TRD =      0 
 

  **info** (d:\digital electronic\projects\ca_1\question_1_part_g_capacitance_20\q1_part_g_capacitance_20.sp:34) DC voltage reset to initial transient source value              in source        0:vin                 new dc=  0.0000D+00
 Warning:  Acde = 1 may be too small in BSIM4 model nmos with w=9e-008 l=4.5e-008.

 Warning: (B1 + Weff) may be too small in BSIM4 model nmos with w=9e-008 l=4.5e-008.

 Warning:  Acde = 1 may be too small in BSIM4 model pmos with w=1.8e-007 l=4.5e-008.

 
      
 **info** set option symb=1 internally to help for convergence.
 *****************************************************************
 ******  option summary
 ******
 runlvl  = 3         bypass  = 2         
 Warning:  Acde = 1 may be too small in BSIM4 model nmos with w=9e-008 l=4.5e-008.

 Warning: (B1 + Weff) may be too small in BSIM4 model nmos with w=9e-008 l=4.5e-008.

 Warning:  Acde = 1 may be too small in BSIM4 model pmos with w=1.8e-007 l=4.5e-008.

1****** HSPICE -- D-2010.03-SP1 32-BIT (May 26 2010) winnt ******               
 ******  
 first line of the netlist must be blank.

  ******  operating point information tnom=  25.000 temp=  27.000 *****
 ***** operating point status is all       simulation time is     0.     
    node    =voltage      node    =voltage      node    =voltage

 +0:in      =   0.      0:out     = 999.9601m 0:vdd     =   1.0000 


 ****  voltage sources

 subckt                        
 element  0:v1       0:vin     
  volts      1.0000     0.     
  current   -7.5777n  302.6121p
  power      7.5777n    0.     

     total voltage source power dissipation=    7.5777n       watts




 **** mosfets


 subckt                        
 element  0:m1       0:m2      
 model    0:pmos     0:nmos    
 region       Linear     Cutoff
  id        -7.5716n    7.2741n
  ibs     -3.429e-25  9.488e-25
  ibd       55.2575a   -1.0100p
  vgs       -1.0000     0.     
  vds      -39.8586u  999.9601m
  vbs        0.         0.     
  vth     -413.3471m  309.2431m
  vdsat   -439.2456m   37.5438m
  vod     -586.6529m -309.2431m
  beta     397.0420u    3.8069m
  gam eff  488.0000m  528.0000m
  gm         8.4558n  171.9736n
  gds      189.9553u   29.3232n
  gmb        3.5742n   56.5351n
  cdtot    259.1384a   56.3712a
  cgtot    246.7224a   62.8784a
  cstot    237.3373a  104.0121a
  cbtot    253.3401a  118.0935a
  cgs      141.2729a   32.0135a
  cgd      104.8915a   20.5717a



 ******  
 first line of the netlist must be blank.

  ******  transient analysis tnom=  25.000 temp=  27.000 *****
x

        time    voltage    
                    out    
    0.          999.9601m  
  100.00000p    597.3312m  
  200.00000p    241.5586m  
  300.00000p     44.8918m  
  400.00000p    -15.5583m  
  500.00000p     -1.2163m  
  600.00000p    -41.5135u  
  700.00000p     52.7714u  
  800.00000p     21.9385u  
  900.00000p     23.1113u  
    1.00000n     24.2841u  
    1.10000n     25.4569u  
    1.20000n     26.6297u  
    1.30000n     26.4678u  
    1.40000n     26.1929u  
    1.50000n     25.9180u  
    1.60000n     25.6431u  
    1.70000n     25.3682u  
    1.80000n     25.0933u  
    1.90000n     24.8183u  
    2.00000n     24.5434u  
    2.10000n     24.2685u  
    2.20000n     23.9936u  
    2.30000n     23.7187u  
    2.40000n     23.4438u  
    2.50000n     23.4550u  
    2.60000n     23.5468u  
    2.70000n     23.6386u  
    2.80000n     23.7304u  
    2.90000n     23.8221u  
    3.00000n     23.9139u  
    3.10000n     24.0057u  
    3.20000n     24.0975u  
    3.30000n     24.1893u  
    3.40000n     24.2811u  
    3.50000n     24.3729u  
    3.60000n     24.4647u  
    3.70000n     24.5565u  
    3.80000n     24.6483u  
    3.90000n     24.7401u  
    4.00000n     24.8319u  
    4.10000n     24.9237u  
    4.20000n     25.0155u  
    4.30000n     25.1073u  
    4.40000n     25.1991u  
    4.50000n     25.2909u  
    4.60000n     25.3827u  
    4.70000n     25.4744u  
    4.80000n     25.5662u  
    4.90000n     25.6580u  
    5.00000n     25.7498u  
    5.10000n     25.8416u  
    5.20000n     25.9334u  
    5.30000n     26.0252u  
    5.40000n     26.1170u  
    5.50000n     26.2088u  
    5.60000n     26.3006u  
    5.70000n     26.2759u  
    5.80000n     26.2480u  
    5.90000n     26.2202u  
    6.00000n     26.1924u  
    6.10000n     26.1645u  
    6.20000n     26.1367u  
    6.30000n     26.1089u  
    6.40000n     26.0810u  
    6.50000n     26.0532u  
    6.60000n     26.0254u  
    6.70000n     25.9975u  
    6.80000n     25.9697u  
    6.90000n     25.9419u  
    7.00000n     25.9140u  
    7.10000n     25.8862u  
    7.20000n     25.8584u  
    7.30000n     25.8305u  
    7.40000n     25.8027u  
    7.50000n     25.7749u  
    7.60000n     25.7470u  
    7.70000n     25.7192u  
    7.80000n     25.6914u  
    7.90000n     25.6636u  
    8.00000n     25.6357u  
    8.10000n     25.6079u  
    8.20000n     25.5801u  
    8.30000n     25.5522u  
    8.40000n     25.5244u  
    8.50000n     25.4966u  
    8.60000n     25.4687u  
    8.70000n     25.4409u  
    8.80000n     25.4131u  
    8.90000n     25.3852u  
    9.00000n     25.3574u  
    9.10000n     25.3296u  
    9.20000n     25.3017u  
    9.30000n     25.2739u  
    9.40000n     25.2461u  
    9.50000n     25.2182u  
    9.60000n     25.1904u  
    9.70000n     25.1626u  
    9.80000n     25.1347u  
    9.90000n     25.1069u  
   10.00000n     25.0791u  
   10.10000n     25.0512u  
   10.20000n     25.0234u  
   10.30000n     24.9956u  
   10.40000n     24.9677u  
   10.50000n     24.9399u  
   10.60000n     24.9121u  
   10.70000n     24.8843u  
   10.80000n     24.8564u  
   10.90000n     24.8286u  
   11.00000n     24.8008u  
   11.10000n     24.7729u  
   11.20000n     24.7451u  
   11.30000n     24.7173u  
   11.40000n     24.6894u  
   11.50000n     24.6616u  
   11.60000n     24.6338u  
   11.70000n     24.6059u  
   11.80000n     24.5781u  
   11.90000n     24.5503u  
   12.00000n     24.5224u  
   12.10000n     24.4946u  
   12.20000n     24.4668u  
   12.30000n     24.4389u  
   12.40000n     24.4111u  
   12.50000n     24.3833u  
   12.60000n     24.3554u  
   12.70000n     24.3276u  
   12.80000n     24.2998u  
   12.90000n     24.2719u  
   13.00000n     24.2441u  
   13.10000n     24.2163u  
   13.20000n     24.1884u  
   13.30000n     24.1606u  
   13.40000n     24.1328u  
   13.50000n     24.1049u  
   13.60000n     24.0771u  
   13.70000n     24.0493u  
   13.80000n     24.0215u  
   13.90000n     23.9936u  
   14.00000n     23.9658u  
   14.10000n     23.9380u  
   14.20000n     23.9101u  
   14.30000n     23.8823u  
   14.40000n     23.8545u  
   14.50000n     23.8266u  
   14.60000n     23.7988u  
   14.70000n     23.7710u  
   14.80000n     23.7431u  
   14.90000n     23.7153u  
   15.00000n     23.6875u  
   15.10000n     23.6596u  
   15.20000n     23.6318u  
   15.30000n     23.6040u  
   15.40000n     23.5761u  
   15.50000n     23.5483u  
   15.60000n     23.5205u  
   15.70000n     23.5791u  
   15.80000n     23.6401u  
   15.90000n     23.7010u  
   16.00000n     23.7620u  
   16.10000n     23.8229u  
   16.20000n     23.8839u  
   16.30000n     23.9448u  
   16.40000n     24.0058u  
   16.50000n     24.0667u  
   16.60000n     24.1277u  
   16.70000n     24.1886u  
   16.80000n     24.2496u  
   16.90000n     24.3105u  
   17.00000n     24.3715u  
   17.10000n     24.4324u  
   17.20000n     24.4934u  
   17.30000n     24.5543u  
   17.40000n     24.6153u  
   17.50000n     24.6762u  
   17.60000n     24.7372u  
   17.70000n     24.7981u  
   17.80000n     24.8591u  
   17.90000n     24.9200u  
   18.00000n     24.9810u  
   18.10000n     25.0419u  
   18.20000n     25.1029u  
   18.30000n     25.1638u  
   18.40000n     25.2248u  
   18.50000n     25.2857u  
   18.60000n     25.3467u  
   18.70000n     25.4076u  
   18.80000n     25.4686u  
   18.90000n     25.5295u  
   19.00000n     25.5905u  
   19.10000n     25.6514u  
   19.20000n     25.7124u  
   19.30000n     25.7733u  
   19.40000n     25.8343u  
   19.50000n     25.8953u  
   19.60000n     25.9562u  
   19.70000n     26.0172u  
   19.80000n     26.0781u  
   19.90000n     26.1391u  
   20.00000n     26.2000u  
   20.10000n    305.2131m  
   20.20000n    600.7318m  
   20.30000n    799.5465m  
   20.40000n    965.3729m  
   20.50000n      1.0010   
   20.60000n      1.0199   
   20.70000n      1.0091   
   20.80000n      1.0035   
   20.90000n    999.4413m  
   21.00000n    999.7547m  
   21.10000n    999.9040m  
