 ****** HSPICE -- D-2010.03-SP1 32-BIT (May 26 2010) winnt ******               
  Copyright (C) 2010 Synopsys, Inc. All Rights Reserved.                        
  Unpublished-rights reserved under US copyright laws.
  This program is protected by law and is subject to the 
  terms and conditions of the license agreement from Synopsys.
  Use of this program is your acceptance to be bound by the 
  license agreement. HSPICE is the trademark of Synopsys, Inc.
  Input File: d:\digital electronic\projects\ca_1\question_2_vgs_0.8\q2_vgs_0.8.
  lic:  
  lic: FLEXlm: v8.5b 
  lic: USER:   HP                   HOSTNAME: ProBook 
  lic: HOSTID: "00090faa0001 56db30007c95 16db30007c95 a4db30007c95 a45d36cb5ab9
  
  lic: Using FLEXlm license file: 
  lic: 27000@elena 
  lic: Checkout 1 hspice 
  lic: License/Maintenance for hspice will expire on 31-dec-2020/2007.9 
  lic: NODE LOCKED license on hostid "00090faa0001 56db30007c95 16db30007c95 a4d
 b
  lic:   
 Init: read install configuration file: C:\synopsys\Hspice_D-2010.03-SP1\meta.cfg
 (d:\digital electronic\projects\ca_1\question_2_vgs_0.8\q2_vgs_0.8.sp:17)
 **warning**  extra '+' found is ignored
1****** HSPICE -- D-2010.03-SP1 32-BIT (May 26 2010) winnt ******               
 ******  
 first line of the netlist must be blank.

  ******  mos   model parameters tnom=  25.000 temp=  25.000 *****
 
Model Name: nmos  

 BSIM4 Model (Level 54)

    MOBMOD = 0
    BINUNIT = 1
    PARAMCHK = 1
    CAPMOD = 2
    DIOMOD = 1
    RDSMOD = 0
    TRNQSMOD = 0
    ACNQSMOD = 0
    RBODYMOD = 1
    RGATEMOD = 1
    PERMOD = 1
    GEOMOD = 1
    RGEOMOD = 0
    FNOIMOD = 1
    TNOIMOD = 0
    IGCMOD = 1
    IGBMOD = 1
    STIMOD = 0
    VERSION =      4 
    TOXREF = 1.75e-009 
    TOXE = 1.75e-009 
    TOXP = 1.1e-009 
    TOXM = 1.75e-009 
    DTOX = 6.5e-010 
    EPSROX =    3.9 
    CDSC =      0 
    CDSCB =      0 
    CDSCD =      0 
    CIT =      0 
    NFACTOR =    2.1 
    XJ = 1.4e-008 
    VSAT = 1.474e+005 
    A0 =      1 
    AGS = 1e-020 
    A1 =      0 
    A2 =      1 
    AT = 3.3e+004 
    KETA =   0.04 
    NSUB = 6e+016 
    NDEP = 3.28e+018 
    NSD = 2e+020 
    NGATE = 2e+020 
    GAMMA1 =      0 
    GAMMA2 =      0 
    VBX =      0 
    VBM =     -3 
    XT = 1.55e-007 
    K1 =  0.528 
    KT1 =  -0.11 
    KT1L =      0 
    KT2 =  0.022 
    K2 =   0.01 
    K3 =      0 
    K3B =      0 
    LPE0 =      0 
    LPEB =      0 
    DVTP0 = 1e-009 
    DVTP1 =    0.1 
    W0 = 2.5e-006 
    DVT0 =      1 
    DVT1 =      2 
    DVT2 = -0.032 
    DVT0W =      0 
    DVT1W =      0 
    DVT2W =      0 
    DROUT =    0.5 
    DSUB =    0.1 
    VTH0 =  0.469 
    EU =   1.67 
    UA = 6e-010 
    UA1 = 4.31e-009 
    UB = 1.2e-018 
    UB1 = 7.61e-018 
    UC =      0 
    UC1 = -5.6e-011 
    U0 = 0.04372 
    UTE =   -1.5 
    VOFF =  -0.13 
    VOFFL =      0 
    MINV =   0.05 
    FPROUT =    0.2 
    PDITS =   0.08 
    PDITSD =   0.23 
    PDITSL = 2.3e+006 
    DELTA =   0.01 
    RDSW =    155 
    RDSWMIN =      0 
    RDWMIN =      0 
    RSWMIN =      0 
    RDW =     85 
    RSW =     85 
    PRWG =      0 
    PRWB = 6.8e-011 
    PRT =      0 
    ETA0 = 0.0049 
    ETAB =      0 
    PCLM =   0.04 
    PDIBLC1 =  0.001 
    PDIBLC2 =  0.001 
    PDIBLCB = -0.005 
    PSCBE1 = 8.14e+008 
    PSCBE2 = 1e-007 
    PVAG = 1e-020 
    WR =      1 
    DWG =      0 
    DWB =      0 
    XW =      0 
    XWREF =      0 
    XL = -2e-008 
    XLREF = -2e-008 
    B0 =      0 
    B1 =      0 
    ALPHA0 =  0.074 
    ALPHA1 =  0.005 
    AGIDL = 0.0002 
    BGIDL = 2.1e+009 
    CGIDL = 0.0002 
    PHIN =      0 
    EGIDL =    0.8 
    AIGC =  0.012 
    BIGC = 0.0028 
    CIGC =  0.002 
    AIGSD =  0.012 
    BIGSD = 0.0028 
    CIGSD =  0.002 
    AIGBACC =  0.012 
    BIGBACC = 0.0028 
    CIGBACC =  0.002 
    AIGBINV =  0.014 
    BIGBINV =  0.004 
    CIGBINV =  0.004 
    NIGC =      1 
    NIGBINV =      3 
    NIGBACC =      1 
    NTOX =      1 
    EIGBINV =    1.1 
    PIGCD =      1 
    POXEDGE =      1 
    XRCRG1 =     12 
    TNOIA =    1.5 
    TNOIB =    3.5 
    NTNOI =      1 
    XRCRG2 =      5 
    BETA0 =     30 
    IJTHDFWD =   0.01 
    IJTHSFWD =   0.01 
    IJTHDREV =  0.001 
    IJTHSREV =  0.001 
    XJBVD =      1 
    XJBVS =      1 
    BVD =     10 
    BVS =     10 
    VFB =  -0.55 
    GBMIN = 1e-010 
    RBDB =     15 
    RBPB =      5 
    RBSB =     15 
    RBPS =     15 
    RBPD =     15 
    CGSL = 2.653e-010 
    CGDL = 2.653e-010 
    CKAPPAS =   0.03 
    CKAPPAD =   0.03 
    CF = 1.195e-010 
    CLC = 1e-007 
    CLE =    0.6 
    DWC = 5e-009 
    DLC = 3.75e-009 
    DLCIG = 3.75e-009 
    DWJ =      0 
    VFBCV =     -1 
    ACDE =      1 
    MOIN =     15 
    NOFF =    0.9 
    VOFFCV =   0.02 
    DMCG =      0 
    DMCI =      0 
    DMDG =      0 
    DMCGT =      0 
    XGW =      0 
    XGL =      0 
    RSHG =    0.4 
    NGCON =      1 
    TCJ =  0.001 
    TPB =  0.005 
    TCJSW =  0.001 
    TPBSW =  0.005 
    TCJSWG =  0.001 
    TPBSWG =  0.005 
    SK0 =      0 
    SK1 =      0 
    SK2 =      0 
    SL = 2e-006 
    SW = 2e-006 
    K =      0 
    TNOM =  300.1 
    CGSO = 1.1e-010 
    CGDO = 1.1e-010 
    CGBO = 2.56e-011 
    XPART =      0 
    RSH =      5 
    JSS = 0.0001 
    JSWS = 1e-011 
    JSWGS = 1e-010 
    PBS =      1 
    MJS =    0.5 
    PBSWS =      1 
    MJSWS =   0.33 
    CJS = 0.0005 
    CJSWS = 5e-010 
    NJS =      1 
    PBSWGS =      1 
    MJSWGS =   0.33 
    CJSWGS = 3e-010 
    XTIS =      3 
    JSD = 0.0001 
    JSWD = 1e-011 
    JSWGD = 1e-010 
    PBD =      1 
    MJD =    0.5 
    PBSWD =      1 
    MJSWD =   0.33 
    CJD = 0.0005 
    CJSWD = 5e-010 
    NJD =      1 
    PBSWGD =      1 
    MJSWGD =   0.33 
    CJSWGD = 5e-010 
    XTID =      3 
    LMLT =      1 
    WMLT =      1 
    LINT = 3.75e-009 
    LL =      0 
    LLC =      0 
    LLN =      1 
    LW =      0 
    LWC =      0 
    LWN =      1 
    LWL =      0 
    LWLC =      0 
    LMIN =      0 
    LMAX =      1 
    WINT = 5e-009 
    WL =      0 
    WLC =      0 
    WLN =      1 
    WW =      0 
    WWC =      0 
    WWN =      1 
    WWL =      0 
    WWLC =      0 
    WMIN =      0 
    WMAX =      1 
    NOIA = 6.25e+041 
    NOIB = 3.125e+026 
    NOIC = 8.75e+009 
    EM = 4.1e+007 
    EF =      1 
    AF =      1 
    KF =      0 
    TRS =      0 
    TRD =      0 
 

 ***************************************************************************
 *** common model parameters  model name:   0:nmos_sim model type:nmos   ***
 ***************************************************************************
     names  values   units     names  values   units     names  values   units
     -----  ------   -----     -----  ------   -----     -----  ------   -----

   1*** geometry parameters ***
       ld=   0.    meters      lmlt=   1.00                wd=   0.    meters 
     wmlt=   1.00                xl=   0.    meters        xw=   0.    meters 
     lref=   0.    meters      wref=   0.    meters      lref=   0.    meters 
     wref=   0.    meters     xlref=   0.    meters     xwref=   0.    meters 
     lmin=   0.    meters      wmin=   0.    meters      lmax=   0.    meters 
     wmax=   0.    meters 

   2*** threshold voltage parameters ***
      vto= 340.00m volts        nss=   0.    1/cm**2      tpg=   1.00         
      phi= 600.00m volts      gamma= 527.63m v**0.5      bulk=  gnd           
    ngate=   0.    cm**3       nsub= 1.0e+15 1/cm**3   delvto=   0.    volts  

   3*** gate overlap capacitance parameters ***
     cgbo=   0.    f/meter     cgdo=   0.    f/meter     cgso=   0.    f/meter
     meto=   0.    meters 

   4*** gate capacitance parameters ***
    capop=   2.00               cf1=   0.    volts        cf2= 100.00m volts  
      cf3=   1.00  volts        cf4=  50.00               cf5= 666.67m        
      cf6= 500.00               xqc= 500.00m              tox= 100.00n meters 
      cox= 345.31u f/m**2 

   5*** diffusion parasitic parameters ***
      acm=   0.                  is=  10.00f amps          js=   0.    a/m**2 
      jsw=   0.    amp/m        nds=   1.00               cbd=   0.    farad  
      cbs=   0.    farad         cj= 101.85u f/m**2      cjsw=   0.    f/m    
   cjgate=   0.    f/m           mj= 500.00m             mjsw= 330.00m        
       pb= 800.00m volts        php= 800.00m volts         tt=   0.    secs   
     hdif=   0.    meters      ldif=   0.    meters        rd=   0.    ohms   
       rs=   0.    ohms         rsh=   0.    ohms/sq       fc=   0.           
    alpha=   0.                 vcr=   0.    volts      iirat=   0.           
      rdc=   0.    ohms         rsc=   0.    ohms           n=   1.00         
     vnds=  -1.00  volts  

   6*** temperature effect parameters ***
     tlev=   0.               tlevc=   0.                  eg=   1.11  ev     
     gap1= 702.00u ev/deg      gap2=   1.11k deg          xti=   0.           
      bex=  -1.50               tcv=   0.    v/deg k      trd=   0.    /deg   
      trs=   0.    /deg         cta=   0.    /deg         ctp=   0.    /deg   

   7*** noise parameters ***
       kf=   0.                  af=   1.00              nlev=   2.00         
   gdsnoi=   1.00         

   ***  level  1  model parameters  ***

   lambda= 100.00m /v            kp= 210.00u a/v**2 
 Warning:  Acde = 1 may be too small in BSIM4 model nmos with w=1e-006 l=1e-007.

 
      
 **info** set option symb=1 internally to help for convergence.
 *****************************************************************
 ******  option summary
 ******
 runlvl  = 3         bypass  = 2         
 Warning:  Acde = 1 may be too small in BSIM4 model nmos with w=1e-006 l=1e-007.

 ******  
 first line of the netlist must be blank.

  ******  dc transfer curves tnom=  25.000 temp=  27.000 *****
x

        volt    current      current    
                    m1           m2     
    0.           -5.6801n      0.       
   10.00000m     16.8936u      9.5425u  
   20.00000m     33.1401u     18.8958u  
   30.00000m     48.7367u     28.0592u  
   40.00000m     63.6868u     37.0321u  
   50.00000m     77.9937u     45.8139u  
   60.00000m     91.6608u     54.4040u  
   70.00000m    104.6915u     62.8016u  
   80.00000m    117.0893u     71.0063u  
   90.00000m    128.8574u     79.0173u  
  100.00000m    139.9992u     86.8341u  
  110.00000m    150.5181u     94.4560u  
  120.00000m    160.4173u    101.8825u  
  130.00000m    169.7003u    109.1128u  
  140.00000m    178.3709u    116.1464u  
  150.00000m    186.4332u    122.9826u  
  160.00000m    193.8922u    129.6208u  
  170.00000m    200.7544u    136.0605u  
  180.00000m    207.0279u    142.3009u  
  190.00000m    212.7238u    148.3414u  
  200.00000m    217.8571u    154.1814u  
  210.00000m    222.4474u    159.8204u  
  220.00000m    226.5204u    165.2576u  
  230.00000m    230.1076u    170.4925u  
  240.00000m    233.2467u    175.5244u  
  250.00000m    235.9800u    180.3527u  
  260.00000m    238.3528u    184.9767u  
  270.00000m    240.4108u    189.3959u  
  280.00000m    242.1982u    193.6097u  
  290.00000m    243.7558u    197.6173u  
  300.00000m    245.1203u    201.4183u  
  310.00000m    246.3230u    205.0119u  
  320.00000m    247.3910u    208.3975u  
  330.00000m    248.3465u    211.5745u  
  340.00000m    249.2081u    214.5424u  
  350.00000m    249.9912u    217.3004u  
  360.00000m    250.7082u    219.8479u  
  370.00000m    251.3693u    222.1843u  
  380.00000m    251.9830u    224.3091u  
  390.00000m    252.5562u    226.2215u  
  400.00000m    253.0947u    227.9209u  
  410.00000m    253.6033u    229.4068u  
  420.00000m    254.0858u    230.6785u  
  430.00000m    254.5456u    231.7353u  
  440.00000m    254.9856u    232.5767u  
  450.00000m    255.4080u    233.2020u  
  460.00000m    255.8150u    233.6106u  
  470.00000m    256.2082u    233.8475u  
  480.00000m    256.5892u    234.0709u  
  490.00000m    256.9592u    234.2942u  
  500.00000m    257.3192u    234.5176u  
  510.00000m    257.6704u    234.7409u  
  520.00000m    258.0135u    234.9643u  
  530.00000m    258.3492u    235.1876u  
  540.00000m    258.6783u    235.4110u  
  550.00000m    259.0013u    235.6343u  
  560.00000m    259.3186u    235.8577u  
  570.00000m    259.6308u    236.0810u  
  580.00000m    259.9383u    236.3044u  
  590.00000m    260.2414u    236.5277u  
  600.00000m    260.5405u    236.7511u  
  610.00000m    260.8358u    236.9744u  
  620.00000m    261.1276u    237.1978u  
  630.00000m    261.4161u    237.4211u  
  640.00000m    261.7016u    237.6445u  
  650.00000m    261.9843u    237.8678u  
  660.00000m    262.2643u    238.0912u  
  670.00000m    262.5419u    238.3145u  
  680.00000m    262.8170u    238.5379u  
  690.00000m    263.0900u    238.7612u  
  700.00000m    263.3609u    238.9846u  
  710.00000m    263.6298u    239.2079u  
  720.00000m    263.8968u    239.4313u  
  730.00000m    264.1621u    239.6546u  
  740.00000m    264.4258u    239.8780u  
  750.00000m    264.6878u    240.1013u  
  760.00000m    264.9484u    240.3247u  
  770.00000m    265.2075u    240.5480u  
  780.00000m    265.4653u    240.7714u  
  790.00000m    265.7218u    240.9947u  
  800.00000m    265.9771u    241.2181u  
  810.00000m    266.2312u    241.4414u  
  820.00000m    266.4843u    241.6648u  
  830.00000m    266.7362u    241.8881u  
  840.00000m    266.9872u    242.1115u  
  850.00000m    267.2373u    242.3348u  
  860.00000m    267.4864u    242.5582u  
  870.00000m    267.7347u    242.7815u  
  880.00000m    267.9822u    243.0049u  
  890.00000m    268.2290u    243.2282u  
  900.00000m    268.4750u    243.4516u  
  910.00000m    268.7204u    243.6749u  
  920.00000m    268.9652u    243.8983u  
  930.00000m    269.2094u    244.1216u  
  940.00000m    269.4531u    244.3450u  
  950.00000m    269.6964u    244.5683u  
  960.00000m    269.9392u    244.7917u  
  970.00000m    270.1816u    245.0150u  
  980.00000m    270.4237u    245.2384u  
  990.00000m    270.6654u    245.4617u  
    1.00000     270.9070u    245.6851u  
y
1****** HSPICE -- D-2010.03-SP1 32-BIT (May 26 2010) winnt ******               
 ******  
 first line of the netlist must be blank.

  ******  operating point information tnom=  25.000 temp=  27.000 *****
 ***** operating point status is all       simulation time is     0.     
    node    =voltage      node    =voltage

 +0:vds     =   1.0000  0:vgs     = 800.0000m


 ****  voltage sources

 subckt                        
 element  0:vgs      0:vds     
  volts    800.0000m    1.0000 
  current   -7.0290n -516.5921u
  power      5.6232n  516.5921u

     total voltage source power dissipation=  516.5977u       watts




 **** mosfets


 subckt                        
 element  0:m1       0:m2      
 model    0:nmos     0:nmos_sim
 region     Saturati   Saturati
  id       270.9095u  245.6851u
  ibs      1.916e-24    0.     
  ibd       -1.0100p  -13.6338f
  vgs      800.0000m  800.0000m
  vds        1.0000     1.0000 
  vbs        0.         0.     
  vth      461.2549m  336.4719m
  vdsat    249.4682m  463.5281m
  vod      338.7451m  463.5281m
  beta       7.8793m    2.2870m
  gam eff  528.0000m  527.6252m
  gm         1.1134m    1.0601m
  gds       24.1444u   22.3350u
  gmb      382.2805u  362.4027u
  cdtot    715.7097a  4.604e-20
  cgtot      2.3345f   23.4310a
  cstot      2.1961f   23.0211a
  cbtot      1.6064f  3.639e-19
  cgs        1.9643f   23.0211a
  cgd      311.5220a  4.604e-20




          ***** job concluded
1****** HSPICE -- D-2010.03-SP1 32-BIT (May 26 2010) winnt ******               
 ******  
 first line of the netlist must be blank.

  ******  job statistics summary tnom=  25.000 temp=  27.000 *****

  ******  HSPICE Threads Information  ******

  Command Line Threads Count                  :     1
  Available CPU Count                         :     4
  Actual Model Evaluation(Load) Threads Count :     1
  Actual Solver Threads Count                 :     1


  ******  Circuit Statistics  ******
  # nodes       =       7 # elements   =       4
  # resistors   =       0 # capacitors =       0 # inductors   =       0
  # mutual_inds =       0 # vccs       =       0 # vcvs        =       0
  # cccs        =       0 # ccvs       =       0 # volt_srcs   =       2
  # curr_srcs   =       0 # diodes     =       0 # bjts        =       0
  # jfets       =       0 # mosfets    =       2 # U elements  =       0
  # T elements  =       0 # W elements =       0 # B elements  =       0
  # S elements  =       0 # P elements =       0 # va device   =       0


  ******  Runtime Statistics (seconds)  ******

  analysis           time    # points   tot. iter  conv.iter
  op point           0.01           1           4
  dc sweep           0.01         101         204
  readin             0.05
  errchk             0.01
  setup              0.01
  output             0.00


           total memory used          163  kbytes
           total cpu time            0.11 seconds
           total elapsed time        0.15 seconds
           job started at     10:40:09 11/04/2014
           job ended   at     10:40:09 11/04/2014


  lic: Release hspice token(s) 
