 ****** HSPICE -- D-2010.03-SP1 32-BIT (May 26 2010) winnt ******               
  Copyright (C) 2010 Synopsys, Inc. All Rights Reserved.                        
  Unpublished-rights reserved under US copyright laws.
  This program is protected by law and is subject to the 
  terms and conditions of the license agreement from Synopsys.
  Use of this program is your acceptance to be bound by the 
  license agreement. HSPICE is the trademark of Synopsys, Inc.
  Input File: d:\digital electronic\projects\ca_3\dynamic_cmos_xor\dynamic_cmos_
  lic:  
  lic: FLEXlm: v8.5b 
  lic: USER:   HP                   HOSTNAME: ProBook 
  lic: HOSTID: "00090faa0001 56db30007c95 16db30007c95 a4db30007c95 a45d36cb5ab9
  
  lic: Using FLEXlm license file: 
  lic: 27000@elena 
  lic: Checkout 1 hspice 
  lic: License/Maintenance for hspice will expire on 31-dec-2020/2007.9 
  lic: NODE LOCKED license on hostid "00090faa0001 56db30007c95 16db30007c95 a4d
 b
  lic:   
 Init: read install configuration file: C:\synopsys\Hspice_D-2010.03-SP1\meta.cfg
1****** HSPICE -- D-2010.03-SP1 32-BIT (May 26 2010) winnt ******               
 ******  
 first line of the netlist must be blank.

  ******  circuit name directory
 circuit number to circuit name directory
   number circuitname                     definition         multiplier
        0 main circuit
        1 x_a.                            inverter           1.00 
        2 x_b.                            inverter           1.00 
1****** HSPICE -- D-2010.03-SP1 32-BIT (May 26 2010) winnt ******               
 ******  
 first line of the netlist must be blank.

  ******  mos   model parameters tnom=  25.000 temp=  25.000 *****
 
Model Name: nmos  

 BSIM4 Model (Level 54)

    MOBMOD = 0
    BINUNIT = 1
    PARAMCHK = 1
    CAPMOD = 2
    DIOMOD = 1
    RDSMOD = 0
    TRNQSMOD = 0
    ACNQSMOD = 0
    RBODYMOD = 1
    RGATEMOD = 1
    PERMOD = 1
    GEOMOD = 1
    RGEOMOD = 0
    FNOIMOD = 1
    TNOIMOD = 0
    IGCMOD = 1
    IGBMOD = 1
    STIMOD = 0
    VERSION =      4 
    TOXREF = 1.65e-009 
    TOXE = 1.65e-009 
    TOXP = 1e-009 
    TOXM = 1.65e-009 
    DTOX = 6.5e-010 
    EPSROX =    3.9 
    CDSC =      0 
    CDSCB =      0 
    CDSCD =      0 
    CIT =      0 
    NFACTOR =    2.3 
    XJ = 1e-008 
    VSAT = 1.785e+005 
    A0 =      1 
    AGS =      0 
    A1 =      0 
    A2 =      1 
    AT = 3.3e+004 
    KETA =   0.04 
    NSUB = 6e+016 
    NDEP = 4.12e+018 
    NSD = 2e+020 
    NGATE = 2e+020 
    GAMMA1 =      0 
    GAMMA2 =      0 
    VBX =      0 
    VBM =     -3 
    XT = 1.55e-007 
    K1 =    0.4 
    KT1 =  -0.11 
    KT1L =      0 
    KT2 =  0.022 
    K2 =      0 
    K3 =      0 
    K3B =      0 
    LPE0 =      0 
    LPEB =      0 
    DVTP0 = 1e-011 
    DVTP1 =    0.1 
    W0 = 2.5e-006 
    DVT0 =      1 
    DVT1 =      2 
    DVT2 =      0 
    DVT0W =      0 
    DVT1W =      0 
    DVT2W =      0 
    DROUT =    0.5 
    DSUB =    0.1 
    VTH0 = 0.5088 
    EU =   1.67 
    UA = 6e-010 
    UA1 = 4.31e-009 
    UB = 1.2e-018 
    UB1 = 7.61e-018 
    UC =      0 
    UC1 = -5.6e-011 
    U0 = 0.0389 
    UTE =   -1.5 
    VOFF =  -0.13 
    VOFFL =      0 
    MINV =   0.05 
    FPROUT =    0.2 
    PDITS =   0.01 
    PDITSD =   0.23 
    PDITSL = 2.3e+006 
    DELTA =   0.01 
    RDSW =    150 
    RDSWMIN =      0 
    RDWMIN =      0 
    RSWMIN =      0 
    RDW =     75 
    RSW =     75 
    PRWG =      0 
    PRWB =      0 
    PRT =      0 
    ETA0 = 0.0042 
    ETAB =      0 
    PCLM =   0.02 
    PDIBLC1 =  0.001 
    PDIBLC2 =  0.001 
    PDIBLCB = -0.005 
    PSCBE1 = 8.14e+008 
    PSCBE2 = 1e-007 
    PVAG = 1e-020 
    WR =      1 
    DWG =      0 
    DWB =      0 
    XW =      0 
    XWREF =      0 
    XL = -1.4e-008 
    XLREF = -1.4e-008 
    B0 =      0 
    B1 =      0 
    ALPHA0 =  0.074 
    ALPHA1 =  0.005 
    AGIDL = 0.0002 
    BGIDL = 2.1e+009 
    CGIDL = 0.0002 
    PHIN =      0 
    EGIDL =    0.8 
    AIGC =  0.012 
    BIGC = 0.0028 
    CIGC =  0.002 
    AIGSD =  0.012 
    BIGSD = 0.0028 
    CIGSD =  0.002 
    AIGBACC =  0.012 
    BIGBACC = 0.0028 
    CIGBACC =  0.002 
    AIGBINV =  0.014 
    BIGBINV =  0.004 
    CIGBINV =  0.004 
    NIGC =      1 
    NIGBINV =      3 
    NIGBACC =      1 
    NTOX =      1 
    EIGBINV =    1.1 
    PIGCD =      1 
    POXEDGE =      1 
    XRCRG1 =     12 
    TNOIA =    1.5 
    TNOIB =    3.5 
    NTNOI =      1 
    XRCRG2 =      5 
    BETA0 =     30 
    IJTHDFWD =   0.01 
    IJTHSFWD =   0.01 
    IJTHDREV =  0.001 
    IJTHSREV =  0.001 
    XJBVD =      1 
    XJBVS =      1 
    BVD =     10 
    BVS =     10 
    VFB =  -0.55 
    GBMIN = 1e-010 
    RBDB =     15 
    RBPB =      5 
    RBSB =     15 
    RBPS =     15 
    RBPD =     15 
    CGSL = 2.653e-010 
    CGDL = 2.653e-010 
    CKAPPAS =   0.03 
    CKAPPAD =   0.03 
    CF = 1.208e-010 
    CLC = 1e-007 
    CLE =    0.6 
    DWC = 5e-009 
    DLC = 2.7e-009 
    DLCIG = 2.7e-009 
    DWJ =      0 
    VFBCV =     -1 
    ACDE =      1 
    MOIN =     15 
    NOFF =    0.9 
    VOFFCV =   0.02 
    DMCG =      0 
    DMCI =      0 
    DMDG =      0 
    DMCGT =      0 
    XGW =      0 
    XGL =      0 
    RSHG =    0.4 
    NGCON =      1 
    TCJ =  0.001 
    TPB =  0.005 
    TCJSW =  0.001 
    TPBSW =  0.005 
    TCJSWG =  0.001 
    TPBSWG =  0.005 
    SK0 =      0 
    SK1 =      0 
    SK2 =      0 
    SL = 2e-006 
    SW = 2e-006 
    K =      0 
    TNOM =  300.1 
    CGSO = 8.5e-011 
    CGDO = 8.5e-011 
    CGBO = 2.56e-011 
    XPART =      0 
    RSH =      5 
    JSS = 0.0001 
    JSWS = 1e-011 
    JSWGS = 1e-010 
    PBS =      1 
    MJS =    0.5 
    PBSWS =      1 
    MJSWS =   0.33 
    CJS = 0.0005 
    CJSWS = 5e-010 
    NJS =      1 
    PBSWGS =      1 
    MJSWGS =   0.33 
    CJSWGS = 3e-010 
    XTIS =      3 
    JSD = 0.0001 
    JSWD = 1e-011 
    JSWGD = 1e-010 
    PBD =      1 
    MJD =    0.5 
    PBSWD =      1 
    MJSWD =   0.33 
    CJD = 0.0005 
    CJSWD = 5e-010 
    NJD =      1 
    PBSWGD =      1 
    MJSWGD =   0.33 
    CJSWGD = 5e-010 
    XTID =      3 
    LMLT =      1 
    WMLT =      1 
    LINT = 2.7e-009 
    LL =      0 
    LLC =      0 
    LLN =      1 
    LW =      0 
    LWC =      0 
    LWN =      1 
    LWL =      0 
    LWLC =      0 
    LMIN =      0 
    LMAX =      1 
    WINT = 5e-009 
    WL =      0 
    WLC =      0 
    WLN =      1 
    WW =      0 
    WWC =      0 
    WWN =      1 
    WWL =      0 
    WWLC =      0 
    WMIN =      0 
    WMAX =      1 
    NOIA = 6.25e+041 
    NOIB = 3.125e+026 
    NOIC = 8.75e+009 
    EM = 4.1e+007 
    EF =      1 
    AF =      1 
    KF =      0 
    TRS =      0 
    TRD =      0 
 

 
Model Name: pmos  

 BSIM4 Model (Level 54)

    MOBMOD = 0
    BINUNIT = 1
    PARAMCHK = 1
    CAPMOD = 2
    DIOMOD = 1
    RDSMOD = 0
    TRNQSMOD = 0
    ACNQSMOD = 0
    RBODYMOD = 1
    RGATEMOD = 1
    PERMOD = 1
    GEOMOD = 1
    RGEOMOD = 0
    FNOIMOD = 1
    TNOIMOD = 0
    IGCMOD = 1
    IGBMOD = 1
    STIMOD = 0
    VERSION =      4 
    TOXREF = 1.75e-009 
    TOXE = 1.75e-009 
    TOXP = 1e-009 
    TOXM = 1.75e-009 
    DTOX = 7.5e-010 
    EPSROX =    3.9 
    CDSC =      0 
    CDSCB =      0 
    CDSCD =      0 
    CIT =      0 
    NFACTOR =    2.3 
    XJ = 1e-008 
    VSAT = 7e+004 
    A0 =      1 
    AGS = 1e-020 
    A1 =      0 
    A2 =      1 
    AT = 3.3e+004 
    KETA = -0.047 
    NSUB = 6e+016 
    NDEP = 3.07e+018 
    NSD = 2e+020 
    NGATE = 2e+020 
    GAMMA1 =      0 
    GAMMA2 =      0 
    VBX =      0 
    VBM =     -3 
    XT = 1.55e-007 
    K1 =    0.4 
    KT1 =  -0.11 
    KT1L =      0 
    KT2 =  0.022 
    K2 =  -0.01 
    K3 =      0 
    K3B =      0 
    LPE0 =      0 
    LPEB =      0 
    DVTP0 = 1e-011 
    DVTP1 =   0.05 
    W0 = 2.5e-006 
    DVT0 =      1 
    DVT1 =      2 
    DVT2 = -0.032 
    DVT0W =      0 
    DVT1W =      0 
    DVT2W =      0 
    DROUT =    0.6 
    DSUB =    0.1 
    VTH0 =  -0.45 
    EU =      1 
    UA = 2e-009 
    UA1 = 4.31e-009 
    UB = 5e-019 
    UB1 = 7.61e-018 
    UC =      0 
    UC1 = -5.6e-011 
    U0 = 0.00355 
    UTE =   -1.5 
    VOFF = -0.126 
    VOFFL =      0 
    MINV =   0.05 
    FPROUT =    0.2 
    PDITS =   0.08 
    PDITSD =   0.23 
    PDITSL = 2.3e+006 
    DELTA =   0.01 
    RDSW =    150 
    RDSWMIN =      0 
    RDWMIN =      0 
    RSWMIN =      0 
    RDW =     75 
    RSW =     75 
    PRWG =      0 
    PRWB =      0 
    PRT =      0 
    ETA0 = 0.0042 
    ETAB =      0 
    PCLM =    0.1 
    PDIBLC1 =  0.001 
    PDIBLC2 =  0.001 
    PDIBLCB = 3.4e-008 
    PSCBE1 = 8.14e+008 
    PSCBE2 = 9.58e-007 
    PVAG = 1e-020 
    WR =      1 
    DWG =      0 
    DWB =      0 
    XW =      0 
    XWREF =      0 
    XL = -1.4e-008 
    XLREF = -1.4e-008 
    B0 =      0 
    B1 =      0 
    ALPHA0 =  0.074 
    ALPHA1 =  0.005 
    AGIDL = 0.0002 
    BGIDL = 2.1e+009 
    CGIDL = 0.0002 
    PHIN =      0 
    EGIDL =    0.8 
    AIGC =   0.69 
    BIGC = 0.0012 
    CIGC = 0.0008 
    AIGSD = 0.0087 
    BIGSD = 0.0012 
    CIGSD = 0.0008 
    AIGBACC =  0.012 
    BIGBACC = 0.0028 
    CIGBACC =  0.002 
    AIGBINV =  0.014 
    BIGBINV =  0.004 
    CIGBINV =  0.004 
    NIGC =      1 
    NIGBINV =      3 
    NIGBACC =      1 
    NTOX =      1 
    EIGBINV =    1.1 
    PIGCD =      1 
    POXEDGE =      1 
    XRCRG1 =     12 
    TNOIA =    1.5 
    TNOIB =    3.5 
    NTNOI =      1 
    XRCRG2 =      5 
    BETA0 =     30 
    IJTHDFWD =   0.01 
    IJTHSFWD =   0.01 
    IJTHDREV =  0.001 
    IJTHSREV =  0.001 
    XJBVD =      1 
    XJBVS =      1 
    BVD =     10 
    BVS =     10 
    VFB =   0.55 
    GBMIN = 1e-010 
    RBDB =     15 
    RBPB =      5 
    RBSB =     15 
    RBPS =     15 
    RBPD =     15 
    CGSL = 2.653e-010 
    CGDL = 2.653e-010 
    CKAPPAS =   0.03 
    CKAPPAD =   0.03 
    CF = 1.195e-010 
    CLC = 1e-007 
    CLE =    0.6 
    DWC = 5e-009 
    DLC = 2.7e-009 
    DLCIG = 2.7e-009 
    DWJ =      0 
    VFBCV =     -1 
    ACDE =      1 
    MOIN =     15 
    NOFF =    0.9 
    VOFFCV =   0.02 
    DMCG =      0 
    DMCI =      0 
    DMDG =      0 
    DMCGT =      0 
    XGW =      0 
    XGL =      0 
    RSHG =    0.4 
    NGCON =      1 
    TCJ =  0.001 
    TPB =  0.005 
    TCJSW =  0.001 
    TPBSW =  0.005 
    TCJSWG =  0.001 
    TPBSWG =  0.005 
    SK0 =      0 
    SK1 =      0 
    SK2 =      0 
    SL = 2e-006 
    SW = 2e-006 
    K =      0 
    TNOM =  300.1 
    CGSO = 8.5e-011 
    CGDO = 8.5e-011 
    CGBO = 2.56e-011 
    XPART =      0 
    RSH =      5 
    JSS = 0.0001 
    JSWS = 1e-011 
    JSWGS = 1e-010 
    PBS =      1 
    MJS =    0.5 
    PBSWS =      1 
    MJSWS =   0.33 
    CJS = 0.0005 
    CJSWS = 5e-010 
    NJS =      1 
    PBSWGS =      1 
    MJSWGS =   0.33 
    CJSWGS = 3e-010 
    XTIS =      3 
    JSD = 0.0001 
    JSWD = 1e-011 
    JSWGD = 1e-010 
    PBD =      1 
    MJD =    0.5 
    PBSWD =      1 
    MJSWD =   0.33 
    CJD = 0.0005 
    CJSWD = 5e-010 
    NJD =      1 
    PBSWGD =      1 
    MJSWGD =   0.33 
    CJSWGD = 5e-010 
    XTID =      3 
    LMLT =      1 
    WMLT =      1 
    LINT = 2.7e-009 
    LL =      0 
    LLC =      0 
    LLN =      1 
    LW =      0 
    LWC =      0 
    LWN =      1 
    LWL =      0 
    LWLC =      0 
    LMIN =      0 
    LMAX =      1 
    WINT = 5e-009 
    WL =      0 
    WLC =      0 
    WLN =      1 
    WW =      0 
    WWC =      0 
    WWN =      1 
    WWL =      0 
    WWLC =      0 
    WMIN =      0 
    WMAX =      1 
    NOIA = 6.188e+040 
    NOIB = 1.5e+025 
    NOIC = 8.75e+009 
    EM = 4.1e+007 
    EF =      1 
    AF =      1 
    KF =      0 
    TRS =      0 
    TRD =      0 
 

  **info** (d:\digital electronic\projects\ca_3\dynamic_cmos_xor\dynamic_cmos_xor.sp:55) DC voltage reset to initial transient source value              in source        0:vina                new dc=  0.0000D+00
 Warning:  Acde = 1 may be too small in BSIM4 model nmos with w=2.2e-007 l=3.2e-008.

 Warning:  Acde = 1 may be too small in BSIM4 model pmos with w=4.4e-007 l=3.2e-008.

 
      
 **info** set option symb=1 internally to help for convergence.
 *****************************************************************
 ******  option summary
 ******
 runlvl  = 3         bypass  = 2         
  Opening plot unit= 79
 file=d:\digital electronic\projects\ca_3\dynamic_cmos_xor\dynamic_cmos_xor.pa0

1****** HSPICE -- D-2010.03-SP1 32-BIT (May 26 2010) winnt ******               
 ******  
 first line of the netlist must be blank.

  ******  operating point information tnom=  25.000 temp=  25.000 *****
 ***** operating point status is all       simulation time is     0.     
    node    =voltage      node    =voltage      node    =voltage

 +0:a       =   0.      0:a_bar   = 999.8598m 0:b       =   0.     
 +0:b_bar   = 999.8598m 0:clk     =   0.      0:out     = 999.9688m
 +0:vdd     =   1.0000  0:w1      = 695.3637m 0:w2      = 741.7393m


 ****  voltage sources

 subckt                                              
 element  0:v1       0:vina     0:vinb     0:vinc    
  volts      1.0000     0.         0.         0.     
  current -169.0018n    1.7740n    2.7936n  266.9629p
  power    169.0018n    0.         0.         0.     

     total voltage source power dissipation=  169.0018n       watts




 **** mosfets


 subckt                                                                    
 element  0:m_p_clk  0:m_n_b    0:m_n_a_ba 0:m_n_a    0:m_n_b_ba 0:m_n_clk 
 model    0:pmos     0:nmos     0:nmos     0:nmos     0:nmos     0:nmos    
 region       Linear     Cutoff     Cutoff     Cutoff     Cutoff     Cutoff
  id       -16.9293n  9.232e-20   15.6697n  1.015e-19   15.1216n   14.7116n
  ibs     -2.873e-25 -741.7567f -741.7567f -695.3811f -695.3811f  6.619e-25
  ibd       43.3728a   -1.0100p   -1.0100p -751.7393f -751.7393f -705.3637f
  vgs       -1.0000  -741.7393m  258.1205m -695.3637m  304.4961m    0.     
  vds      -31.2261u  258.2295m  258.2295m   46.3755m   46.3755m  695.3637m
  vbs        0.      -741.7393m -741.7393m -695.3637m -695.3637m    0.     
  vth     -430.8212m  562.6831m  562.6831m  602.5050m  602.5050m  341.8001m
  vdsat   -427.4163m   40.0976m   40.1491m   40.4241m   40.4869m   38.6918m
  vod     -569.1788m   -1.3044  -304.5626m   -1.2979  -298.0090m -341.8001m
  beta       1.2003m    9.8168m    9.8163m    9.3046m    9.3040m   13.1717m
  gam eff  400.0000m  400.0000m  400.0000m  400.0000m  400.0000m  400.0000m
  gm        19.3690n    2.3940a  393.0329n    2.6184a  376.3696n  334.0258n
  gds      542.1399u  5.669e-19   93.2939n    1.2469a  182.9847n   78.7525n
  gmb        6.1536n  6.516e-19   67.4487n  7.290e-19   65.4909n   84.9823n
  cdtot    604.1356a  136.4995a  166.5145a  142.0339a  184.9328a  143.2304a
  cgtot    559.3110a  117.3691a  184.0754a  119.2251a  199.5262a  147.7789a
  cstot    563.5773a  196.9570a  239.8587a  198.6423a  242.2547a  254.6972a
  cbtot    602.0918a  251.7907a  245.5795a  257.1543a  250.9431a  285.8519a
  cgs      326.2027a   50.4959a   93.3994a   50.8786a   94.4933a   79.0513a
  cgd      230.4981a   49.0219a   79.0364a   50.4952a   93.3935a   50.8773a



 subckt   x_a        x_a        x_b        x_b       
 element  1:mn       1:mp       2:mn       2:mp      
 model    0:nmos     0:pmos     0:nmos     0:pmos    
 region       Cutoff     Linear     Cutoff     Linear
  id        74.7232n  -75.9875n   74.7232n  -75.9981n
  ibs      9.696e-25 -2.875e-25  9.696e-25 -2.875e-25
  ibd       -1.0099p  194.5798a   -1.0099p  194.6068a
  vgs        0.        -1.0000     0.        -1.0000 
  vds      999.8598m -140.1702u  999.8598m -140.1896u
  vbs        0.         0.         0.         0.     
  vth      274.7591m -430.7918m  274.7591m -430.7918m
  vdsat     38.2784m -427.4302m   38.2784m -427.4302m
  vod     -274.7591m -569.2082m -274.7591m -569.2082m
  beta      14.3318m    1.2003m   14.3318m    1.2003m
  gam eff  400.0000m  400.0000m  400.0000m  400.0000m
  gm         1.6566u   86.9450n    1.6566u   86.9570n
  gds      398.9178n  542.0539u  398.9178n  542.0539u
  gmb      397.5360n   27.6206n  397.5360n   27.6244n
  cdtot    136.5000a  604.0273a  136.5000a  604.0273a
  cgtot    145.9367a  559.3085a  145.9367a  559.3085a
  cstot    254.7099a  563.6438a  254.7099a  563.6439a
  cbtot    280.9787a  602.0794a  280.9787a  602.0794a
  cgs       79.0710a  326.2364a   79.0710a  326.2364a
  cgd       49.0189a  230.4612a   49.0189a  230.4612a



 ******  
 first line of the netlist must be blank.

  ******  transient analysis tnom=  25.000 temp=  25.000 *****
   pow=  5.1751E-07  from=  1.0000E-09     to=  1.7000E-07
x

        time    voltage      voltage      voltage      voltage    
                    out           a            b           clk    
    0.          999.9688m      0.           0.           0.       
   10.00000p    999.9688m      0.           0.           0.       
   20.00000p    999.9688m      0.           0.           0.       
   30.00000p    999.9688m      0.           0.           0.       
   40.00000p    999.9688m      0.           0.           0.       
   50.00000p    999.9688m      0.           0.           0.       
   60.00000p    999.9688m      0.           0.           0.       
   70.00000p    999.9688m      0.           0.           0.       
   80.00000p    999.9688m      0.           0.           0.       
   90.00000p    999.9688m      0.           0.           0.       
  100.00000p    999.9688m      0.           0.           0.       
  110.00000p    999.9688m      0.           0.           0.       
  120.00000p    999.9688m      0.           0.           0.       
  130.00000p    999.9688m      0.           0.           0.       
  140.00000p    999.9688m      0.           0.           0.       
  150.00000p    999.9688m      0.           0.           0.       
  160.00000p    999.9688m      0.           0.           0.       
  170.00000p    999.9688m      0.           0.           0.       
  180.00000p    999.9688m      0.           0.           0.       
  190.00000p    999.9688m      0.           0.           0.       
  200.00000p    999.9688m      0.           0.           0.       
  210.00000p    999.9688m      0.           0.           0.       
  220.00000p    999.9688m      0.           0.           0.       
  230.00000p    999.9688m      0.           0.           0.       
  240.00000p    999.9688m      0.           0.           0.       
  250.00000p    999.9688m      0.           0.           0.       
  260.00000p    999.9688m      0.           0.           0.       
  270.00000p    999.9688m      0.           0.           0.       
  280.00000p    999.9688m      0.           0.           0.       
  290.00000p    999.9688m      0.           0.           0.       
  300.00000p    999.9688m      0.           0.           0.       
  310.00000p    999.9688m      0.           0.           0.       
  320.00000p    999.9688m      0.           0.           0.       
  330.00000p    999.9688m      0.           0.           0.       
  340.00000p    999.9688m      0.           0.           0.       
  350.00000p    999.9688m      0.           0.           0.       
  360.00000p    999.9688m      0.           0.           0.       
  370.00000p    999.9688m      0.           0.           0.       
  380.00000p    999.9688m      0.           0.           0.       
  390.00000p    999.9688m      0.           0.           0.       
  400.00000p    999.9688m      0.           0.           0.       
  410.00000p    999.9688m      0.           0.           0.       
  420.00000p    999.9688m      0.           0.           0.       
  430.00000p    999.9688m      0.           0.           0.       
  440.00000p    999.9688m      0.           0.           0.       
